Sample in Buffer,Sample in Window,TRIGGER,system_top_i/rv_system/system_ila_0/inst/probe0_1[38:0],system_top_i/rv_system/system_ila_0/inst/probe1_1,system_top_i/rv_system/system_ila_0/inst/probe2_1,system_top_i/rv_system/system_ila_0/inst/probe3_1[4:0],system_top_i/rv_system/system_ila_0/inst/probe4_1[63:0],system_top_i/rv_system/system_ila_0/inst/probe5_1[63:0],system_top_i/rv_system/system_ila_0/inst/probe6_1
Radix - UNSIGNED,UNSIGNED,UNSIGNED,HEX,HEX,HEX,HEX,HEX,HEX,HEX
0,0,0,0080000184,0,0,13,ffffffff800f0000,000000002f077f5d,0
1,1,0,0080000184,0,0,13,ffffffff800f0000,000000002f077f5d,0
2,2,0,0080000188,1,1,14,0000000000000000,000000002f077f5d,0
3,3,0,0080000188,0,0,14,0000000000000000,000000002f077f5e,0
4,4,0,0080000188,0,0,14,0000000000000000,000000002f077f5e,0
5,5,0,008000018c,1,1,15,ffffffff80113d10,000000002f077f5e,0
6,6,0,008000018c,0,0,15,ffffffff80113d10,000000002f077f5f,0
7,7,0,008000018c,0,0,15,ffffffff80113d10,000000002f077f5f,0
8,8,0,0080000190,1,1,16,00000000000011f8,000000002f077f5f,0
9,9,0,0080000190,0,0,16,00000000000011f8,000000002f077f60,0
10,10,0,0080000190,0,0,16,00000000000011f8,000000002f077f60,0
11,11,0,0080000194,1,1,17,ffffffff800cc000,000000002f077f60,0
12,12,0,0080000194,0,0,17,ffffffff800cc000,000000002f077f61,0
13,13,0,0080000194,0,0,17,ffffffff800cc000,000000002f077f61,0
14,14,0,0080000198,1,1,18,0000000000000000,000000002f077f61,0
15,15,0,0080000198,0,0,18,0000000000000000,000000002f077f62,0
16,16,0,0080000198,0,0,18,0000000000000000,000000002f077f62,0
17,17,0,008000019c,1,1,19,0000000000001ee0,000000002f077f62,0
18,18,0,008000019c,0,0,19,0000000000001ee0,000000002f077f63,0
19,19,0,008000019c,0,0,19,0000000000001ee0,000000002f077f63,0
20,20,0,00800001a0,1,1,1a,ffffffff80118000,000000002f077f63,0
21,21,0,00800001a0,0,0,1a,ffffffff80118000,000000002f077f64,0
22,22,0,00800001a0,0,0,1a,ffffffff80118000,000000002f077f64,0
23,23,0,00800001a4,1,1,1b,0000000000000000,000000002f077f64,0
24,24,0,00800001a4,0,0,1b,0000000000000000,000000002f077f65,0
25,25,0,00800001a4,0,0,1b,0000000000000000,000000002f077f65,0
26,26,0,00800001a8,1,1,1c,0000000000000000,000000002f077f65,0
27,27,0,00800001a8,0,0,1c,0000000000000000,000000002f077f66,0
28,28,0,00800001a8,0,0,1c,0000000000000000,000000002f077f66,0
29,29,0,00800001ac,1,1,1d,0000000000000000,000000002f077f66,0
30,30,0,00800001ac,0,0,1d,0000000000000000,000000002f077f67,0
31,31,0,00800001ac,0,0,1d,0000000000000000,000000002f077f67,0
32,32,0,00800001b0,1,1,1e,6db6db6db6db6db7,000000002f077f67,0
33,33,0,00800001b0,0,0,1e,6db6db6db6db6db7,000000002f077f68,0
34,34,0,00800001b0,0,0,1e,6db6db6db6db6db7,000000002f077f68,0
35,35,0,00800001b4,1,1,1f,ffffffff800f2654,000000002f077f68,0
36,36,0,00800001b4,0,0,1f,ffffffff800f2654,000000002f077f69,0
37,37,0,00800001b4,0,0,1f,ffffffff800f2654,000000002f077f69,0
38,38,0,00800001b8,1,1,02,ffffffff80113c70,000000002f077f69,0
39,39,0,00800001bc,1,1,00,000000000000b109,000000002f077f6a,0
40,40,0,00800001c0,0,0,02,000000008000bdc0,000000002f077f6b,0
41,41,0,00800001c0,0,0,02,000000008000bdc0,000000002f077f6b,0
42,42,0,00800001c0,0,0,02,000000008000bdc0,000000002f077f6b,0
43,43,0,00800001c0,0,0,02,000000008000bdc0,000000002f077f6b,0
44,44,0,00800001c0,0,0,02,000000008000bdc0,000000002f077f6b,0
45,45,0,00800001c0,0,0,02,000000008000bdc0,000000002f077f6b,0
46,46,0,00800001c0,0,0,02,000000008000bdc0,000000002f077f6b,0
47,47,0,00800001c0,0,0,02,000000008000bdc0,000000002f077f6b,0
48,48,0,7f800ba340,1,0,0f,0000000000000000,000000002f077f6b,0
49,49,0,7f800ba340,0,0,0f,0000000000000000,000000002f077f6c,0
50,50,0,7f800ba340,0,0,0f,0000000000000000,000000002f077f6c,0
51,51,0,7f800ba340,0,0,0f,0000000000000000,000000002f077f6c,0
52,52,0,7f800ba340,0,0,0f,0000000000000000,000000002f077f6c,0
53,53,0,7f800ba340,0,0,0f,0000000000000000,000000002f077f6c,0
54,54,0,7f800ba340,0,0,0f,0000000000000000,000000002f077f6c,0
55,55,0,7f800ba340,0,0,0f,0000000000000000,000000002f077f6c,0
56,56,0,0080000004,1,1,02,000000008000bdc0,000000002f077f6c,0
57,57,0,0080000004,0,0,02,000000008000bdc0,000000002f077f6d,0
58,58,0,0080000008,1,0,00,000000008000000c,000000002f077f6d,0
59,59,0,0080000008,0,0,00,000000008000000c,000000002f077f6e,0
60,60,0,0080000008,0,0,00,000000008000000c,000000002f077f6e,0
61,61,0,008000000c,1,0,00,00000000000003e8,000000002f077f6e,0
62,62,0,008000000c,0,0,00,00000000000003e8,000000002f077f6f,0
63,63,0,008000000c,0,0,00,00000000000003e8,000000002f077f6f,0
64,64,0,0080000010,1,0,00,0000000000000000,000000002f077f6f,0
65,65,0,0080000014,1,1,0b,0000000000000002,000000002f077f70,0
66,66,0,0080000014,0,0,0b,0000000000000002,000000002f077f71,0
67,67,0,0080000018,1,0,00,000000008000001c,000000002f077f71,0
68,68,0,0080000018,0,0,00,000000008000001c,000000002f077f72,0
69,69,0,0080000018,0,0,00,000000008000001c,000000002f077f72,0
70,70,0,008000009c,1,0,00,ffffffff80019d2c,000000002f077f72,0
71,71,0,008000009c,0,0,00,ffffffff80019d2c,000000002f077f73,0
72,72,0,008000009c,0,0,00,ffffffff80019d2c,000000002f077f73,0
73,73,0,00800000a0,1,0,00,ffffffff800ea868,000000002f077f73,0
74,74,0,00800000a0,0,0,00,ffffffff800ea868,000000002f077f74,0
75,75,0,00800000a0,0,0,00,ffffffff800ea868,000000002f077f74,0
76,76,0,00800000a4,1,0,00,ffffffff80118000,000000002f077f74,0
77,77,0,00800000a4,0,0,00,ffffffff80118000,000000002f077f75,0
78,78,0,00800000a4,0,0,00,ffffffff80118000,000000002f077f75,0
79,79,0,00800000a8,1,0,00,ffffffff800f5e48,000000002f077f75,0
80,80,0,00800000ac,1,1,05,00000000800090ac,000000002f077f76,0
81,81,0,00800000ac,0,0,05,00000000800090ac,000000002f077f77,0
82,82,0,00800000ac,0,0,05,00000000800090ac,000000002f077f77,0
83,83,0,00800000b0,1,0,00,0000000000000038,000000002f077f77,0
84,84,0,00800000b4,1,1,06,0000000000000010,000000002f077f78,0
85,85,0,00800000b4,0,0,06,0000000000000010,000000002f077f79,0
86,86,0,00800000b4,0,0,06,0000000000000010,000000002f077f79,0
87,87,0,00800000b8,1,0,00,0000000000000200,000000002f077f79,0
88,88,0,00800000bc,1,1,06,00000000800090bc,000000002f077f7a,0
89,89,0,00800000bc,0,0,06,00000000800090bc,000000002f077f7b,0
90,90,0,00800000bc,0,0,06,00000000800090bc,000000002f077f7b,0
91,91,0,00800000c0,1,0,00,0000000000001130,000000002f077f7b,0
92,92,0,00800000c0,0,0,00,0000000000001130,000000002f077f7c,0
93,93,0,00800000c0,0,0,00,0000000000001130,000000002f077f7c,0
94,94,0,00800000c4,1,1,06,0000000080002b42,000000002f077f7c,0
95,95,0,00800000c4,0,0,06,0000000080002b42,000000002f077f7d,0
96,96,0,00800000c4,0,0,06,0000000080002b42,000000002f077f7d,0
97,97,0,00800000c8,1,0,00,0000000000000001,000000002f077f7d,0
98,98,0,00800000cc,1,1,0a,000000008000bdc0,000000002f077f7e,0
99,99,0,00800000cc,0,0,0a,000000008000bdc0,000000002f077f7f,0
100,100,0,00800000cc,0,0,0a,000000008000bdc0,000000002f077f7f,0
101,101,0,00800000d0,1,0,00,0000000000000000,000000002f077f7f,0
102,102,0,00800000d4,1,1,0c,ffffffff800ba340,000000002f077f80,0
103,103,0,00800000d4,0,0,0c,ffffffff800ba340,000000002f077f81,0
104,104,0,00800000d4,0,0,0c,ffffffff800ba340,000000002f077f81,0
105,105,0,00800000d8,1,0,00,00000000004664d1,000000002f077f81,0
106,106,0,00800000dc,1,1,05,ffffffff80113c70,000000002f077f82,0
107,107,0,00800000dc,0,0,05,ffffffff80113c70,000000002f077f83,0
108,108,0,00800000dc,0,0,05,ffffffff80113c70,000000002f077f83,0
109,109,0,00800000e0,1,0,00,00000000000003e7,000000002f077f83,0
110,110,0,00800000e0,0,0,00,00000000000003e7,000000002f077f84,0
111,111,0,00800000e0,0,0,00,00000000000003e7,000000002f077f84,0
112,112,0,00800000e4,1,0,00,00000000000346dc,000000002f077f84,0
113,113,0,00800000e4,0,0,00,00000000000346dc,000000002f077f85,0
114,114,0,00800000e4,0,0,00,00000000000346dc,000000002f077f85,0
115,115,0,00800000e8,1,0,00,0000000000000007,000000002f077f85,0
116,116,0,00800000e8,0,0,00,0000000000000007,000000002f077f86,0
117,117,0,00800000e8,0,0,00,0000000000000007,000000002f077f86,0
118,118,0,00800000ec,1,0,00,0000000000000001,000000002f077f86,0
119,119,0,00800000ec,0,0,00,0000000000000001,000000002f077f87,0
120,120,0,00800000ec,0,0,00,0000000000000001,000000002f077f87,0
121,121,0,00800000f0,1,0,00,0000000000000004,000000002f077f87,0
122,122,0,00800000f0,0,0,00,0000000000000004,000000002f077f88,0
123,123,0,00800000f0,0,0,00,0000000000000004,000000002f077f88,0
124,124,0,00800000f4,1,0,00,ffffffff800f0000,000000002f077f88,0
125,125,0,00800000f4,0,0,00,ffffffff800f0000,000000002f077f89,0
126,126,0,00800000f4,0,0,00,ffffffff800f0000,000000002f077f89,0
127,127,0,00800000f8,1,0,00,0000000000000000,000000002f077f89,0
128,128,0,00800000f8,0,0,00,0000000000000000,000000002f077f8a,0
129,129,0,00800000f8,0,0,00,0000000000000000,000000002f077f8a,0
130,130,0,00800000fc,1,0,00,ffffffff80113d10,000000002f077f8a,0
131,131,0,00800000fc,0,0,00,ffffffff80113d10,000000002f077f8b,0
132,132,0,00800000fc,0,0,00,ffffffff80113d10,000000002f077f8b,0
133,133,0,0080000100,1,0,00,00000000000011f8,000000002f077f8b,0
134,134,0,0080000100,0,0,00,00000000000011f8,000000002f077f8c,0
135,135,0,0080000100,0,0,00,00000000000011f8,000000002f077f8c,0
136,136,0,0080000104,1,0,00,ffffffff800cc000,000000002f077f8c,0
137,137,0,0080000104,0,0,00,ffffffff800cc000,000000002f077f8d,0
138,138,0,0080000104,0,0,00,ffffffff800cc000,000000002f077f8d,0
139,139,0,0080000108,1,0,00,0000000000000000,000000002f077f8d,0
140,140,0,0080000108,0,0,00,0000000000000000,000000002f077f8e,0
141,141,0,0080000108,0,0,00,0000000000000000,000000002f077f8e,0
142,142,0,008000010c,1,0,00,0000000000001ee0,000000002f077f8e,0
143,143,0,008000010c,0,0,00,0000000000001ee0,000000002f077f8f,0
144,144,0,008000010c,0,0,00,0000000000001ee0,000000002f077f8f,0
145,145,0,0080000110,1,0,00,ffffffff80118000,000000002f077f8f,0
146,146,0,0080000110,0,0,00,ffffffff80118000,000000002f077f90,0
147,147,0,0080000110,0,0,00,ffffffff80118000,000000002f077f90,0
148,148,0,0080000114,1,0,00,0000000000000000,000000002f077f90,0
149,149,0,0080000114,0,0,00,0000000000000000,000000002f077f91,0
150,150,0,0080000114,0,0,00,0000000000000000,000000002f077f91,0
151,151,0,0080000118,1,0,00,0000000000000000,000000002f077f91,0
152,152,0,0080000118,0,0,00,0000000000000000,000000002f077f92,0
153,153,0,0080000118,0,0,00,0000000000000000,000000002f077f92,0
154,154,0,008000011c,1,0,00,0000000000000000,000000002f077f92,0
155,155,0,008000011c,0,0,00,0000000000000000,000000002f077f93,0
156,156,0,008000011c,0,0,00,0000000000000000,000000002f077f93,0
157,157,0,0080000120,1,0,00,6db6db6db6db6db7,000000002f077f93,0
158,158,0,0080000120,0,0,00,6db6db6db6db6db7,000000002f077f94,0
159,159,0,0080000120,0,0,00,6db6db6db6db6db7,000000002f077f94,0
160,160,0,0080000124,1,0,00,ffffffff800f2654,000000002f077f94,0
161,161,0,0080000124,0,0,00,ffffffff800f2654,000000002f077f95,0
162,162,0,0080000124,0,0,00,ffffffff800f2654,000000002f077f95,0
163,163,0,0080000128,1,0,00,ffffffff80113c70,000000002f077f95,0
164,164,0,0080000128,0,0,00,ffffffff80113c70,000000002f077f96,0
165,165,0,0080000128,0,0,00,ffffffff80113c70,000000002f077f96,0
166,166,0,0080000128,0,0,00,ffffffff80113c70,000000002f077f96,0
167,167,0,008000012c,1,1,04,0000000000000000,000000002f077f96,0
168,168,0,008000012c,0,0,04,0000000000000000,000000002f077f97,0
169,169,0,008000012c,0,0,04,0000000000000000,000000002f077f97,0
170,170,0,0080000130,1,0,00,0000000000000000,000000002f077f97,0
171,171,0,0080000134,1,1,01,0000000080000138,000000002f077f98,0
172,172,0,0080000134,0,0,01,0000000080000138,000000002f077f99,0
173,173,0,0080000134,0,0,01,0000000080000138,000000002f077f99,0
174,174,0,0080000134,0,0,01,0000000080000138,000000002f077f99,0
175,175,0,0080000134,0,0,01,0000000080000138,000000002f077f99,0
176,176,0,0080000134,0,0,01,0000000080000138,000000002f077f99,0
177,177,0,0080000134,0,0,01,0000000080000138,000000002f077f99,0
178,178,0,0080000134,0,0,01,0000000080000138,000000002f077f99,0
179,179,0,0080002b42,1,1,1c,0000000000000002,000000002f077f99,0
180,180,0,0080002b44,1,1,0f,ffffffff800ba340,000000002f077f9a,0
181,181,0,0080002b44,0,0,0f,ffffffff800ba340,000000002f077f9b,0
182,182,0,0080002b46,1,1,11,0000000000000822,000000002f077f9b,0
183,183,0,0080002b4a,1,1,0e,0000000000000000,000000002f077f9c,0
184,184,0,0080002b4e,1,1,10,0000000000000003,000000002f077f9d,0
185,185,0,0080002b50,1,1,06,0000000000000000,000000002f077f9e,0
186,186,0,0080002b54,1,0,00,0000000080002b58,000000002f077f9f,0
187,187,0,0080002b7c,1,0,00,0000000080002b7e,000000002f077fa0,0
188,188,0,0080002bec,1,1,0b,00000000000a0000,000000002f077fa1,0
189,189,0,0080002bf0,1,1,0d,0000000000000822,000000002f077fa2,0
190,190,0,0080002bf4,1,1,11,0000000000000000,000000002f077fa3,0
191,191,0,0080002bf8,1,0,00,0000000080002bfc,000000002f077fa4,0
192,192,0,0080002bf8,0,0,00,0000000080002bfc,000000002f077fa5,0
193,193,0,0080002bf8,0,0,00,0000000080002bfc,000000002f077fa5,0
194,194,0,0080002bf8,0,0,00,0000000080002bfc,000000002f077fa5,0
195,195,0,0080002bf8,0,0,00,0000000080002bfc,000000002f077fa5,0
196,196,0,0080002bf8,0,0,00,0000000080002bfc,000000002f077fa5,0
197,197,0,0080002bf8,0,0,00,0000000080002bfc,000000002f077fa5,0
198,198,0,0080002bf8,0,0,00,0000000080002bfc,000000002f077fa5,0
199,199,0,0080002bf8,0,0,00,0000000080002bfc,000000002f077fa5,0
200,200,0,0080002bf8,0,0,00,0000000080002bfc,000000002f077fa5,0
201,201,0,0080002bf8,0,0,00,0000000080002bfc,000000002f077fa5,0
202,202,0,0080002bf8,0,0,00,0000000080002bfc,000000002f077fa5,0
203,203,0,0080002bf8,0,0,00,0000000080002bfc,000000002f077fa5,0
204,204,0,0080002bfc,1,1,0e,00000000c01027f3,000000002f077fa5,0
205,205,0,0080002c00,1,1,11,0000000000000003,000000002f077fa6,0
206,206,0,0080002c04,1,0,00,0000000080002c08,000000002f077fa7,0
207,207,0,0080002c22,1,1,00,00000000000a0822,000000002f077fa8,0
208,208,0,0080002c26,1,1,0c,0000000000000003,000000002f077fa9,0
209,209,0,0080002c2a,1,1,11,0000000000000822,000000002f077faa,0
210,210,0,0080002c2c,1,0,00,0000000080002c30,000000002f077fab,0
211,211,0,0080002b58,1,1,0d,ffffffff800ba344,000000002f077fac,0
212,212,0,0080002b5c,1,1,00,ffffffff800ba340,000000002f077fad,0
213,213,0,0080002b60,1,1,10,0000000080006b60,000000002f077fae,0
214,214,0,0080002b64,1,1,10,00000000800069c8,000000002f077faf,0
215,215,0,0080002b68,1,1,0c,0000000000000070,000000002f077fb0,0
216,216,0,0080002b6c,1,1,0c,0000000080006a38,000000002f077fb1,0
217,217,0,0080002b6c,0,0,0c,0000000080006a38,000000002f077fb2,0
218,218,0,0080002b6c,0,0,0c,0000000080006a38,000000002f077fb2,0
219,219,0,0080002b6c,0,0,0c,0000000080006a38,000000002f077fb2,0
220,220,0,0080002b6c,0,0,0c,0000000080006a38,000000002f077fb2,0
221,221,0,0080002b6e,1,1,06,ffffffffffffc346,000000002f077fb2,0
222,222,0,0080002b72,1,1,0d,0000000000000822,000000002f077fb3,0
223,223,0,0080002b74,1,1,0c,ffffffff800ba340,000000002f077fb4,0
224,224,0,0080002b76,1,1,06,0000000080002d0e,000000002f077fb5,0
225,225,0,0080002b78,1,1,0b,0000000000000002,000000002f077fb6,0
226,226,0,0080002b7a,1,1,00,0000000080002b7c,000000002f077fb7,0
227,227,0,0080002d0e,1,1,11,0000000000002000,000000002f077fb8,0
228,228,0,0080002d10,1,1,0b,0000000000000822,000000002f077fb9,0
229,229,0,0080002d12,1,1,10,00000000000c0102,000000002f077fba,0
230,230,0,0080002d12,0,0,10,00000000000c0102,000000002f077fbb,0
231,231,0,0080002d16,1,1,11,0000000000001800,000000002f077fbb,0
232,232,0,0080002d1a,1,1,0d,000000008000bdc0,000000002f077fbc,0
233,233,0,0080002d1c,1,1,1c,0000000000018020,000000002f077fbd,0
234,234,0,0080002d20,1,1,0f,0000000000000000,000000002f077fbe,0
235,235,0,0080002d24,1,1,11,0000000000000800,000000002f077fbf,0
236,236,0,0080002d28,1,1,06,00000000000007ff,000000002f077fc0,0
237,237,0,0080002d2c,1,1,1d,0000000000000000,000000002f077fc1,0
238,238,0,0080002d30,1,1,0a,ffffffff800ba340,000000002f077fc2,0
239,239,0,0080002d32,1,1,1c,000000008000bdc0,000000002f077fc3,0
240,240,0,0080002d32,0,0,1c,000000008000bdc0,000000002f077fc4,0
241,241,0,0080002d36,1,1,0f,0000000000000c01,000000002f077fc4,0
242,242,0,0080002d3a,1,0,00,0000000080002d3e,000000002f077fc5,0
243,243,0,0080002de6,1,1,11,0000000000001000,000000002f077fc6,0
244,244,0,0080002de8,1,1,0c,0000000000000b03,000000002f077fc7,0
245,245,0,0080002dec,1,0,00,0000000080002df0,000000002f077fc8,0
246,246,0,0080002df0,1,0,00,0000000080002df4,000000002f077fc9,0
247,247,0,0080002df4,1,1,0c,0000000000000c01,000000002f077fca,0
248,248,0,0080002df8,1,0,00,0000000080002dfc,000000002f077fcb,0
249,249,0,0080002dfc,0,0,00,0000000080002e00,000000002f077fcc,0
250,250,0,0080002dfc,0,0,00,0000000080002e00,000000002f077fcc,0
251,251,0,0080002dfc,0,0,00,0000000080002e00,000000002f077fcc,0
252,252,0,0080002dfc,0,0,00,0000000080002e00,000000002f077fcc,0
253,253,0,0080002dfc,0,0,00,0000000080002e00,000000002f077fcc,0
254,254,0,0080002dfc,0,0,00,0000000080002e00,000000002f077fcc,0
255,255,0,0080002dfc,0,0,00,0000000080002e00,000000002f077fcc,0
256,256,0,0080002dfc,0,0,00,0000000080002e00,000000002f077fcc,0
257,257,0,0080002efe,1,1,0c,0000000080012efe,000000002f077fcc,0
258,258,0,0080002efe,0,0,0c,0000000080012efe,000000002f077fcd,0
259,259,0,0080002efe,0,0,0c,0000000080012efe,000000002f077fcd,0
260,260,0,0080002f02,1,1,0c,000000003800bff8,000000002f077fcd,0
261,261,0,0080002f02,0,0,0c,000000003800bff8,000000002f077fce,0
262,262,0,0080002f02,0,0,0c,000000003800bff8,000000002f077fce,0
263,263,0,0080002f02,0,0,0c,000000003800bff8,000000002f077fce,0
264,264,0,0080002f02,0,0,0c,000000003800bff8,000000002f077fce,0
265,265,0,0080002f02,0,0,0c,000000003800bff8,000000002f077fce,0
266,266,0,0080002f02,0,0,0c,000000003800bff8,000000002f077fce,0
267,267,0,0080002f06,1,1,1e,00000000004664d2,000000002f077fce,0
268,268,0,0080002f0a,1,1,00,0000000080002f0c,000000002f077fcf,0
269,269,0,0080002d6e,1,1,10,0000000000000002,000000002f077fd0,0
270,270,0,0080002d72,1,1,06,0000000080006d72,000000002f077fd1,0
271,271,0,0080002d76,1,1,06,0000000080006a48,000000002f077fd2,0
272,272,0,0080002d7a,1,1,10,0000000000000008,000000002f077fd3,0
273,273,0,0080002d7c,1,1,10,0000000080006a50,000000002f077fd4,0
274,274,0,0080002d7c,0,0,10,0000000080006a50,000000002f077fd5,0
275,275,0,0080002d7c,0,0,10,0000000080006a50,000000002f077fd5,0
276,276,0,0080002d7c,0,0,10,0000000080006a50,000000002f077fd5,0
277,277,0,0080002d7c,0,0,10,0000000080006a50,000000002f077fd5,0
278,278,0,0080002d7e,1,1,0c,ffffffffffffc472,000000002f077fd5,0
279,279,0,0080002d7e,0,0,0c,ffffffffffffc472,000000002f077fd6,0
280,280,0,0080002d7e,0,0,0c,ffffffffffffc472,000000002f077fd6,0
281,281,0,0080002d82,1,1,11,0000000000000000,000000002f077fd6,0
282,282,0,0080002d86,1,1,0c,0000000080002eba,000000002f077fd7,0
283,283,0,0080002d88,1,1,00,0000000080002d8a,000000002f077fd8,0
284,284,0,0080002d8a,0,0,0c,fffffffffffffc01,000000002f077fd9,0
285,285,0,0080002d8a,0,0,0c,fffffffffffffc01,000000002f077fd9,0
286,286,0,0080002d8a,0,0,0c,fffffffffffffc01,000000002f077fd9,0
287,287,0,0080002d8a,0,0,0c,fffffffffffffc01,000000002f077fd9,0
288,288,0,0080002d8a,0,0,0c,fffffffffffffc01,000000002f077fd9,0
289,289,0,0080002d8a,0,0,0c,fffffffffffffc01,000000002f077fd9,0
290,290,0,0080002d8a,0,0,0c,fffffffffffffc01,000000002f077fd9,0
291,291,0,0080002eba,1,1,11,00000000004664d2,000000002f077fd9,0
292,292,0,0080002eba,0,0,11,00000000004664d2,000000002f077fda,0
293,293,0,0080002ebe,1,0,00,0000000080002ec2,000000002f077fda,0
294,294,0,0080002ec2,1,1,0e,000000000c01027f,000000002f077fdb,0
295,295,0,0080002ec4,1,1,0e,0000000000000078,000000002f077fdc,0
296,296,0,0080002ec8,1,1,0d,000000008000be38,000000002f077fdd,0
297,297,0,0080002ec8,0,0,0d,000000008000be38,000000002f077fde,0
298,298,0,0080002ec8,0,0,0d,000000008000be38,000000002f077fde,0
299,299,0,0080002eca,1,0,00,00000000000346dc,000000002f077fde,0
300,300,0,0080002ece,1,1,00,0000000080002ed0,000000002f077fdf,0
301,301,0,0080002ece,0,0,00,0000000080002ed0,000000002f077fe0,0
302,302,0,0080002ece,0,0,00,0000000080002ed0,000000002f077fe0,0
303,303,0,0080000138,1,0,00,0000000000000000,000000002f077fe0,0
304,304,0,008000013c,1,1,00,0000000000000000,000000002f077fe1,0
305,305,0,008000013c,0,0,00,0000000000000000,000000002f077fe2,0
306,306,0,008000013c,0,0,00,0000000000000000,000000002f077fe2,0
307,307,0,0080000140,1,1,01,ffffffff80019d2c,000000002f077fe2,0
